#Digilent WaveForms Network Analyzer - Bode
#Device Name: Discovery2
#Serial Number: DEMO
#Date Time: 2020-02-25 15:55:32.033
#Start: 10 Hz
#Stop: 10000 Hz
#Steps: 151
#Wavegen: Wavegen1
#Amplification: 1 X
#Settle: 10 ms
#MinPeriods: 16 
#Channel: Channel 1
#Range: 5.57422 V
#Offset: 0.000269454 V
#Relative: no
#Channel: Channel 2
#Range: 5.51641 V
#Offset: 0.000317814 V
#Relative: yes

Frequency (Hz)	Channel 1 Magnitude (dB)	Channel 2 Magnitude (dB)	Channel 2 Phase (deg)
10.00000000000001	0.02354813903998403	-0.00835297575464917	-0.564634622262659
10.47128548050901	0.02350212850628427	-0.008087983367874575	-0.5892178446615759
10.96478196143186	0.02340803638872329	-0.008345067446880104	-0.6174869367959985
11.48153621496884	0.02333783912708461	-0.008581331601584164	-0.6458053848007808
12.02264434617413	0.02323381591911426	-0.008792267939500645	-0.6767974822807403
12.58925411794169	0.02315832071915172	-0.008919007408697435	-0.7084354738325587
13.18256738556409	0.023305540988345	-0.009129716383647917	-0.740782674132177
13.80384264602885	0.02335277870335022	-0.009449472296670897	-0.7742288442438507
14.45439770745929	0.02344833867700155	-0.0097558411444517	-0.8108047089347519
15.1356124843621	0.02373688794127627	-0.01032961528773505	-0.8488741532293602
15.84893192461114	0.02352795645838594	-0.01038538156287373	-0.8883045960601663
16.59586907437563	0.02346785818180475	-0.01084797119825412	-0.9285984223572727
17.37800828749376	0.02355400304842496	-0.01087647968439201	-0.9725738446683749
18.19700858609984	0.02579616012444648	-0.01136237307911053	-1.018068232601763
19.0546071796325	0.02362196510732904	-0.01148909853131553	-1.064523644237589
19.95262314968881	0.02325818859371197	-0.01167243134293739	-1.11452378575467
20.89296130854041	0.02323043015896937	-0.0123167422411001	-1.16546274386023
21.87761623949554	0.02357879100517669	-0.0128654948371204	-1.219292397906088
22.90867652767774	0.02347812099827106	-0.01317007908894765	-1.276906645904319
23.98832919019492	0.02356323240579879	-0.01379226777244127	-1.335055986226422
25.11886431509582	0.02374467548624081	-0.01438926284806211	-1.396388395854689
26.30267991895384	0.02364157876821543	-0.0148065943980638	-1.46236626551044
27.54228703338169	0.02340962308668593	-0.01551944649437283	-1.528735718970836
28.84031503126609	0.02369335725917882	-0.01627590825711156	-1.600703364837372
30.19951720402019	0.02353439791789948	-0.01685588608284602	-1.673844107304632
31.62277660168382	0.02357984478607085	-0.01754702132485873	-1.75064483975162
33.11311214825914	0.02343445995485847	-0.01826292361706856	-1.829930042235134
34.67368504525317	0.02358528980597108	-0.0191385223556997	-1.913876087630427
36.30780547701018	0.02351782991860057	-0.01999432861202076	-2.003144324229879
38.01893963205617	0.02347540172619555	-0.02080099526897591	-2.09473339369552
39.81071705534973	0.02344328219327469	-0.02164986117155523	-2.193317373762852
41.6869383470336	0.02344258232004724	-0.02295983054914328	-2.294776224710694
43.65158322401665	0.02337665293032122	-0.02417316153428559	-2.399895903026351
45.70881896148752	0.02336580113969962	-0.02558299208842542	-2.510788451409823
47.8630092322639	0.02338357283680104	-0.02685230799861023	-2.62800545649344
50.1187233627273	0.02326984333066986	-0.02804425454230065	-2.748886142269455
52.48074602497728	0.02347873446735873	-0.02994360854246136	-2.875522819431239
54.95408738576254	0.02328522113661094	-0.03167583618054946	-3.006912001318113
57.54399373371578	0.02331858101786993	-0.03346480197176391	-3.147357982429952
60.25595860743581	0.02341120323860244	-0.03536301599618157	-3.294143161995734
63.09573444801936	0.02354831978300684	-0.03772687502157021	-3.445694264056215
66.06934480075964	0.02350728082300317	-0.03984330017339702	-3.604155263526707
69.1830970918937	0.02361227921475959	-0.04224731425052985	-3.771850986246079
72.44359600749907	0.02339736479473633	-0.04505017175947544	-3.945424108646478
75.85775750291843	0.02357407347298193	-0.04764531305441248	-4.125403798154903
79.43282347242821	0.0236740051556359	-0.05094852621785052	-4.316574330126457
83.17637711026718	0.02360118477410783	-0.05402814719828133	-4.514014462645711
87.09635899560816	0.02363274575746287	-0.05765008431071705	-4.723423487107084
91.20108393559106	0.02342546434650709	-0.06157472421317876	-4.940753023613141
95.4992586021437	0.02345897621063704	-0.06602514390545745	-5.167956600805404
100	0.02352626889632412	-0.0702033986142228	-5.407160691666917
104.7128548050901	0.02343274963276592	-0.07516114444239451	-5.653708858651171
109.6478196143186	0.02346750511841718	-0.08055781521120994	-5.913473338902598
114.8153621496883	0.02346214346381261	-0.08608725947226241	-6.185761634328191
120.2264434617414	0.02357733801860639	-0.09212856421008517	-6.4682482581822
125.8925411794168	0.02327725213923519	-0.09904408091941255	-6.765144971569043
131.8256738556408	0.02371903256068136	-0.1064396278237452	-7.07262601266234
138.0384264602886	0.0233554227480477	-0.1142632163574018	-7.39670766111992
144.5439770745929	0.02331481537438993	-0.1228099695684443	-7.734166093066676
151.3561248436209	0.02370461731228841	-0.1320995401177195	-8.08711318451779
158.4893192461115	0.02341998734096551	-0.1421421546611062	-8.453873129410308
165.9586907437562	0.02362922607438295	-0.1528718037632167	-8.838974386564729
173.7800828749376	0.02335536266775483	-0.1643806664956763	-9.239128247231164
181.9700858609984	0.02327488177554332	-0.1768802941846525	-9.657927002197056
190.546071796325	0.02336113552149042	-0.1907474888682936	-10.09509183180421
199.5262314968881	0.02333643049374643	-0.2054742681097662	-10.54925592984122
208.929613085404	0.02309823879003221	-0.2218140872970061	-11.02207339286534
218.7761623949554	0.02347229684577141	-0.2391766301600803	-11.5150483352306
229.0867652767775	0.02315544819624249	-0.2582191702165187	-12.03369892839507
239.8832919019491	0.02285131734211083	-0.2782695485855708	-12.56644317039808
251.1886431509582	0.02322781407891475	-0.3009988408294316	-13.12659979979762
263.0267991895385	0.02286856758858112	-0.3246424787339541	-13.70659722816634
275.4228703338167	0.02324177226414994	-0.3509533360100979	-14.3123070571704
288.4031503126608	0.02353501740679716	-0.3789799329498589	-14.93871078854853
301.9951720402019	0.02279999845152067	-0.4094352483831958	-15.59223396214619
316.2277660168381	0.02295441850463801	-0.4422535020941596	-16.26931645770739
331.1311214825913	0.02258112883378208	-0.4781701813168346	-16.97184825824421
346.7368504525317	0.02287536034032466	-0.5168814885109156	-17.70077664202984
363.0780547701016	0.02276544131631233	-0.5580570225995023	-18.45936940339431
380.1893963205612	0.02326082840378992	-0.6029846497988884	-19.23938778102575
398.1071705534973	0.02266072325643442	-0.6512326058539653	-20.05025344369393
416.8693834703357	0.02260241137688989	-0.7032618875596898	-20.88763942121277
436.5158322401661	0.02278393272168495	-0.7594618765523674	-21.75294732246383
457.0881896148752	0.02247002965889151	-0.8195469935420784	-22.64497753804935
478.6300923226388	0.02223553279941968	-0.8850994131046651	-23.56684600928533
501.1872336272725	0.02229088811057269	-0.9548422308004378	-24.51442904202199
524.8074602497728	0.02266338567551011	-1.029684793731191	-25.4886678377722
549.5408738576245	0.02273196232614912	-1.109601025885419	-26.49053243252119
575.4399373371572	0.022070604694923	-1.195505803985995	-27.51668201452773
602.5595860743581	0.02232635952984903	-1.287025336061982	-28.56872607710244
630.9573444801933	0.02174300080594343	-1.38453392026635	-29.64724958989295
660.6934480075964	0.0219613961791121	-1.48945846356259	-30.74430482262918
691.8309709189366	0.02173928884298847	-1.600391837696595	-31.86727123297308
724.4359600749902	0.02147415624072755	-1.718275682504895	-33.00916819353758
758.5775750291845	0.02133666209173098	-1.843486321543663	-34.17245095105946
794.3282347242817	0.02236379474180886	-1.976322619475321	-35.34905839934046
831.7637711026713	0.02152092106202984	-2.116415701503646	-36.54509998014089
870.9635899560806	0.02111117385985813	-2.264268919973277	-37.75461882965078
912.0108393559101	0.02087858806786067	-2.420171728359261	-38.97346679281464
954.9925860214364	0.02070144397003163	-2.584409776972841	-40.2018501453756
1000	0.02051526291972441	-2.75687381090793	-41.43884913631156
1047.1285480509	0.02023408989005198	-2.937127083607358	-42.678025802759
1096.478196143186	0.01998533590345579	-3.125781672739754	-43.92242514504393
1148.153621496883	0.01987793535316823	-3.323897226467451	-45.16546192614452
1202.264434617413	0.0189466590300996	-3.52913918237167	-46.40204819488669
1258.925411794167	0.0195400465951644	-3.742522830003258	-47.63795669732361
1318.256738556407	0.01894071500061189	-3.965314649990426	-48.86370590447933
1380.384264602885	0.01852087295585852	-4.195671472746063	-50.08427980660289
1445.439770745928	0.01872199189982821	-4.433690138118941	-51.29507474217404
1513.561248436209	0.01811377215220184	-4.680619572730818	-52.48872129418777
1584.893192461113	0.01740231948024975	-4.934295525702846	-53.663135820191
1659.586907437561	0.01668473908476556	-5.195940524707075	-54.82612004973596
1737.800828749376	0.01662202145514483	-5.463974393727896	-55.96552627993623
1819.700858609984	0.01554743865217692	-5.739696228903918	-57.08728398758499
1905.460717963248	0.01559392295563582	-6.02127397243907	-58.18462484644992
1995.262314968881	0.01454300450001203	-6.309442995823696	-59.26434955393706
2089.29613085404	0.01451866404858239	-6.605632245492888	-60.30875472004004
2187.761623949553	0.01416241163151938	-6.90639982598195	-61.33479967861616
2290.867652767773	0.01364108945914508	-7.21198396768278	-62.32842101729388
2398.832919019491	0.0122423182944422	-7.523952478400425	-63.31061686906898
2511.886431509582	0.01182631320419088	-7.841722087980934	-64.25314714057788
2630.267991895382	0.01041803704375329	-8.163260569033424	-65.17138411528133
2754.228703338167	0.009313669155431945	-8.489074730484209	-66.06639879191601
2884.031503126605	0.008675021990694649	-8.820585624150691	-66.93144623218654
3019.951720402017	0.008133019301175361	-9.154672900223154	-67.75966010968257
3162.27766016838	0.0068516220624405	-9.494402534435626	-68.56841656605954
3311.311214825911	0.005920595442050799	-9.837085531812928	-69.34876582689299
3467.368504525317	0.005709505624343198	-10.18174624746477	-70.09698205854625
3630.780547701015	0.003694906748713382	-10.53032847776285	-70.83231053254167
3801.893963205612	0.002912091316673444	-10.88260182068064	-71.53983416611206
3981.071705534974	0.0009720793922155216	-11.23749479255755	-72.20840519190779
4168.693834703354	-1.579160124744249e-05	-11.59325209870337	-72.85698024202952
4365.15832240166	-0.0008632850917295435	-11.95552174149486	-73.48542041781815
4570.881896148752	-0.001598198610622517	-12.31648190036544	-74.08710012887258
4786.300923226383	-0.00280718267732427	-12.68042518642806	-74.67141238925845
5011.872336272725	-0.004525642812425603	-13.04701216296218	-75.22471275683745
5248.074602497725	-0.00739758926669459	-13.41571804985246	-75.7598043916549
5495.408738576246	-0.006075350264001089	-13.78662726762749	-76.26735237160165
5754.399373371572	-0.008979433314525111	-14.15737626490671	-76.76128856753414
6025.595860743577	-0.009550503780496983	-14.53276596767079	-77.23752894420284
6309.573444801934	-0.01099771275113562	-14.90553603097469	-77.68710397990486
6606.934480075958	-0.01093953273841193	-15.27884629712673	-78.11497182675498
6918.309709189365	-0.02073868068271281	-15.65750045217729	-78.54097537183084
7244.359600749903	-0.01412445008536482	-16.03167031328598	-78.93514070570149
7585.775750291837	-0.01462529238516074	-16.41160772412992	-79.31687750513811
7943.282347242816	-0.01542325875661824	-16.79322578114937	-79.67326638453885
8317.637711026713	-0.01892166212613943	-17.16935411717395	-80.01692090132536
8709.635899560806	-0.02359516963807161	-17.55208085602017	-80.36130430145064
9120.1083935591	-0.026266313085183	-17.93380893768522	-80.66914441350063
9549.925860214356	-0.02603411723866734	-18.31726338088648	-80.99258395115778
10000	-0.02350477956550734	-18.69915473917729	-81.2928366662079
